
**** 05/07/26 21:44:51 *********** Evaluation PSpice (Nov 1999) **************

 * C:\Users\Lim Wei Jen\Documents\UM Programming\latex template\EC assignment - New\pspice simulation\Circuit B.sch


 ****     CIRCUIT DESCRIPTION


******************************************************************************




* Schematics Version 9.1 - Web Update 1
* Thu May 07 21:44:48 2026



** Analysis setup **
.ac DEC 101 10 100Meg
.OP 


* From [PSPICE NETLIST] section of pspiceev.ini:
.lib "nom.lib"

.INC "Circuit B.net"

**** INCLUDING "Circuit B.net" ****
* Schematics Netlist *



R_R1         0 $N_0001  1k  
R_R2         $N_0001 $N_0002  1k  
Q_Q1         $N_0003 $N_0001 $N_0004 Q2N2222
R_R3         $N_0003 $N_0002  1k  
R_R5         0 $N_0005  1k  
R_R4         $N_0005 $N_0004  1k  
V_V1         $N_0002 0 10V
C_C1         $N_0006 $N_0001  10u  
C_C3         $N_0007 $N_0003  10u  
C_C2         0 $N_0005  10u  
R_R6         0 $N_0007  1k  
V_V2         $N_0006 0 DC 0 AC 1V
+SIN 0 10m 1k 0 0 0

**** RESUMING "Circuit B.cir" ****
.INC "Circuit B.als"



**** INCLUDING "Circuit B.als" ****
* Schematics Aliases *

.ALIASES
R_R1            R1(1=0 2=$N_0001 )
R_R2            R2(1=$N_0001 2=$N_0002 )
Q_Q1            Q1(c=$N_0003 b=$N_0001 e=$N_0004 )
R_R3            R3(1=$N_0003 2=$N_0002 )
R_R5            R5(1=0 2=$N_0005 )
R_R4            R4(1=$N_0005 2=$N_0004 )
V_V1            V1(+=$N_0002 -=0 )
C_C1            C1(1=$N_0006 2=$N_0001 )
C_C3            C3(1=$N_0007 2=$N_0003 )
C_C2            C2(1=0 2=$N_0005 )
R_R6            R6(1=0 2=$N_0007 )
V_V2            V2(+=$N_0006 -=0 )
.ENDALIASES


**** RESUMING "Circuit B.cir" ****
.probe


.END

**** 05/07/26 21:44:51 *********** Evaluation PSpice (Nov 1999) **************

 * C:\Users\Lim Wei Jen\Documents\UM Programming\latex template\EC assignment - New\pspice simulation\Circuit B.sch


 ****     BJT MODEL PARAMETERS


******************************************************************************




               Q2N2222         
               NPN             
          IS   14.340000E-15 
          BF  255.9          
          NF    1            
         VAF   74.03         
         IKF     .2847       
         ISE   14.340000E-15 
          NE    1.307        
          BR    6.092        
          NR    1            
          RB   10            
          RC    1            
         CJE   22.010000E-12 
         MJE     .377        
         CJC    7.306000E-12 
         MJC     .3416       
          TF  411.100000E-12 
         XTF    3            
         VTF    1.7          
         ITF     .6          
          TR   46.910000E-09 
         XTB    1.5          
          CN    2.42         
           D     .87         


**** 05/07/26 21:44:51 *********** Evaluation PSpice (Nov 1999) **************

 * C:\Users\Lim Wei Jen\Documents\UM Programming\latex template\EC assignment - New\pspice simulation\Circuit B.sch


 ****     SMALL SIGNAL BIAS SOLUTION       TEMPERATURE =   27.000 DEG C


******************************************************************************



 NODE   VOLTAGE     NODE   VOLTAGE     NODE   VOLTAGE     NODE   VOLTAGE


($N_0001)    4.9934                   ($N_0002)   10.0000                       

($N_0003)    7.8489                   ($N_0004)    4.3285                       

($N_0005)    2.1643                   ($N_0006)    0.0000                       

($N_0007)    0.0000                   




    VOLTAGE SOURCE CURRENTS
    NAME         CURRENT

    V_V1        -7.158E-03
    V_V2         0.000E+00

    TOTAL POWER DISSIPATION   7.16E-02  WATTS


**** 05/07/26 21:44:51 *********** Evaluation PSpice (Nov 1999) **************

 * C:\Users\Lim Wei Jen\Documents\UM Programming\latex template\EC assignment - New\pspice simulation\Circuit B.sch


 ****     OPERATING POINT INFORMATION      TEMPERATURE =   27.000 DEG C


******************************************************************************






**** BIPOLAR JUNCTION TRANSISTORS


NAME         Q_Q1      
MODEL        Q2N2222   
IB           1.31E-05 
IC           2.15E-03 
VBE          6.65E-01 
VBC         -2.86E+00 
VCE          3.52E+00 
BETADC       1.64E+02 
GM           8.25E-02 
RPI          2.16E+03 
RX           1.00E+01 
RO           3.57E+04 
CBE          7.09E-11 
CBC          4.27E-12 
CJS          0.00E+00 
BETAAC       1.78E+02 
CBX/CBX2     0.00E+00 
FT/FT2       1.75E+08 



          JOB CONCLUDED

          TOTAL JOB TIME             .05
