
**** 05/07/26 22:01:31 *********** Evaluation PSpice (Nov 1999) **************

 * C:\Users\Lim Wei Jen\Documents\UM Programming\latex template\EC assignment - New\pspice simulation\Circuit C.sch


 ****     CIRCUIT DESCRIPTION


******************************************************************************




* Schematics Version 9.1 - Web Update 1
* Thu May 07 22:01:27 2026



** Analysis setup **
.ac DEC 101 10 100Meg
.OP 


* From [PSPICE NETLIST] section of pspiceev.ini:
.lib "nom.lib"

.INC "Circuit C.net"

**** INCLUDING "Circuit C.net" ****
* Schematics Netlist *



R_R2         0 $N_0001  1k  
R_R1         $N_0001 $N_0002  1k  
Q_Q1         $N_0003 $N_0001 $N_0004 Q2N2222
R_R3         0 $N_0004  1k  
Q_Q2         $N_0003 $N_0005 $N_0002 Q2N2907A
Q_Q3         $N_0005 $N_0005 $N_0002 Q2N2907A
R_R5         0 $N_0005  1k  
C_C1         $N_0006 $N_0001  10u  
C_C2         0 $N_0004  10u  
C_C3         $N_0007 $N_0003  10u  
V_V1         $N_0002 0 10V
R_R4         0 $N_0007  1k  
V_V2         $N_0006 0  AC 1V
+SIN 0 10m 1k 0 0 0

**** RESUMING "Circuit C.cir" ****
.INC "Circuit C.als"



**** INCLUDING "Circuit C.als" ****
* Schematics Aliases *

.ALIASES
R_R2            R2(1=0 2=$N_0001 )
R_R1            R1(1=$N_0001 2=$N_0002 )
Q_Q1            Q1(c=$N_0003 b=$N_0001 e=$N_0004 )
R_R3            R3(1=0 2=$N_0004 )
Q_Q2            Q2(c=$N_0003 b=$N_0005 e=$N_0002 )
Q_Q3            Q3(c=$N_0005 b=$N_0005 e=$N_0002 )
R_R5            R5(1=0 2=$N_0005 )
C_C1            C1(1=$N_0006 2=$N_0001 )
C_C2            C2(1=0 2=$N_0004 )
C_C3            C3(1=$N_0007 2=$N_0003 )
V_V1            V1(+=$N_0002 -=0 )
R_R4            R4(1=0 2=$N_0007 )
V_V2            V2(+=$N_0006 -=0 )
.ENDALIASES


**** RESUMING "Circuit C.cir" ****
.probe


.END

**** 05/07/26 22:01:31 *********** Evaluation PSpice (Nov 1999) **************

 * C:\Users\Lim Wei Jen\Documents\UM Programming\latex template\EC assignment - New\pspice simulation\Circuit C.sch


 ****     BJT MODEL PARAMETERS


******************************************************************************




               Q2N2222         Q2N2907A        
               NPN             PNP             
          IS   14.340000E-15  650.600000E-18 
          BF  255.9           231.7          
          NF    1               1            
         VAF   74.03          115.7          
         IKF     .2847          1.079        
         ISE   14.340000E-15   54.810000E-15 
          NE    1.307           1.829        
          BR    6.092           3.563        
          NR    1               1            
          RB   10              10            
          RC    1                .715        
         CJE   22.010000E-12   19.820000E-12 
         MJE     .377            .3357       
         CJC    7.306000E-12   14.760000E-12 
         MJC     .3416           .5383       
          TF  411.100000E-12  603.700000E-12 
         XTF    3               1.7          
         VTF    1.7             5            
         ITF     .6              .65         
          TR   46.910000E-09  111.300000E-09 
         XTB    1.5             1.5          
          CN    2.42            2.2          
           D     .87             .52         


**** 05/07/26 22:01:31 *********** Evaluation PSpice (Nov 1999) **************

 * C:\Users\Lim Wei Jen\Documents\UM Programming\latex template\EC assignment - New\pspice simulation\Circuit C.sch


 ****     SMALL SIGNAL BIAS SOLUTION       TEMPERATURE =   27.000 DEG C


******************************************************************************



 NODE   VOLTAGE     NODE   VOLTAGE     NODE   VOLTAGE     NODE   VOLTAGE


($N_0001)    4.9879                   ($N_0002)   10.0000                       

($N_0003)    9.9652                   ($N_0004)    4.3056                       

($N_0005)    9.2181                   ($N_0006)    0.0000                       

($N_0007)    0.0000                   




    VOLTAGE SOURCE CURRENTS
    NAME         CURRENT

    V_V1        -1.851E-02
    V_V2         0.000E+00

    TOTAL POWER DISSIPATION   1.85E-01  WATTS


**** 05/07/26 22:01:31 *********** Evaluation PSpice (Nov 1999) **************

 * C:\Users\Lim Wei Jen\Documents\UM Programming\latex template\EC assignment - New\pspice simulation\Circuit C.sch


 ****     OPERATING POINT INFORMATION      TEMPERATURE =   27.000 DEG C


******************************************************************************






**** BIPOLAR JUNCTION TRANSISTORS


NAME         Q_Q1        Q_Q2        Q_Q3      
MODEL        Q2N2222     Q2N2907A    Q2N2907A  
IB           2.42E-05   -6.02E-04   -3.81E-05 
IC           4.28E-03   -4.28E-03   -8.58E-03 
VBE          6.82E-01   -7.82E-01   -7.82E-01 
VBC         -4.98E+00   -7.47E-01    0.00E+00 
VCE          5.66E+00   -3.48E-02   -7.82E-01 
BETADC       1.77E+02    7.11E+00    2.25E+02 
GM           1.63E-01    1.86E-01    3.29E-01 
RPI          1.16E+03    8.51E+02    6.85E+02 
RX           1.00E+01    1.00E+01    1.00E+01 
RO           1.85E+04    1.29E+01    1.35E+04 
CBE          1.05E-10    1.93E-10    2.33E-10 
CBC          3.65E-12    8.80E-09    1.48E-11 
CJS          0.00E+00    0.00E+00    0.00E+00 
BETAAC       1.90E+02    1.59E+02    2.25E+02 
CBX/CBX2     0.00E+00    0.00E+00    0.00E+00 
FT/FT2       2.40E+08    3.30E+06    2.11E+08 



          JOB CONCLUDED

          TOTAL JOB TIME             .03
