
**** 05/14/26 18:25:31 *********** Evaluation PSpice (Nov 1999) **************

 * C:\Users\Lim Wei Jen\Documents\UM Programming\latex template\EC assignment - New\pspice simulation\Circuit C.sch


 ****     CIRCUIT DESCRIPTION


******************************************************************************




* Schematics Version 9.1 - Web Update 1
* Thu May 14 18:25:28 2026



** Analysis setup **
.tran 10us 5ms 0 10us
.OP 


* From [PSPICE NETLIST] section of pspiceev.ini:
.lib "nom.lib"

.INC "Circuit C.net"

**** INCLUDING "Circuit C.net" ****
* Schematics Netlist *



Q_Q1         $N_0002 $N_0001 $N_0003 Q2N2222
R_R3         0 $N_0003  1k  
Q_Q2         $N_0002 $N_0004 $N_0005 Q2N2907A
Q_Q3         $N_0004 $N_0004 $N_0005 Q2N2907A
C_C1         $N_0006 $N_0001  10u  
C_C2         0 $N_0003  10u  
C_C3         $N_0007 $N_0002  10u  
V_V1         $N_0005 0 10V
R_R4         0 $N_0007  1k  
V_V2         $N_0006 0  AC 1V
+SIN 0 10m 1k 0 0 0
R_R1         $N_0001 $N_0005  8.3k  
R_R2         0 $N_0001  1.7k  
R_R5         0 $N_0004  9.3k  

**** RESUMING "Circuit C.cir" ****
.INC "Circuit C.als"



**** INCLUDING "Circuit C.als" ****
* Schematics Aliases *

.ALIASES
Q_Q1            Q1(c=$N_0002 b=$N_0001 e=$N_0003 )
R_R3            R3(1=0 2=$N_0003 )
Q_Q2            Q2(c=$N_0002 b=$N_0004 e=$N_0005 )
Q_Q3            Q3(c=$N_0004 b=$N_0004 e=$N_0005 )
C_C1            C1(1=$N_0006 2=$N_0001 )
C_C2            C2(1=0 2=$N_0003 )
C_C3            C3(1=$N_0007 2=$N_0002 )
V_V1            V1(+=$N_0005 -=0 )
R_R4            R4(1=0 2=$N_0007 )
V_V2            V2(+=$N_0006 -=0 )
R_R1            R1(1=$N_0001 2=$N_0005 )
R_R2            R2(1=0 2=$N_0001 )
R_R5            R5(1=0 2=$N_0004 )
.ENDALIASES


**** RESUMING "Circuit C.cir" ****
.probe


.END

**** 05/14/26 18:25:31 *********** Evaluation PSpice (Nov 1999) **************

 * C:\Users\Lim Wei Jen\Documents\UM Programming\latex template\EC assignment - New\pspice simulation\Circuit C.sch


 ****     BJT MODEL PARAMETERS


******************************************************************************




               Q2N2222         Q2N2907A        
               NPN             PNP             
          IS   14.340000E-15  650.600000E-18 
          BF  255.9           231.7          
          NF    1               1            
         VAF   74.03          115.7          
         IKF     .2847          1.079        
         ISE   14.340000E-15   54.810000E-15 
          NE    1.307           1.829        
          BR    6.092           3.563        
          NR    1               1            
          RB   10              10            
          RC    1                .715        
         CJE   22.010000E-12   19.820000E-12 
         MJE     .377            .3357       
         CJC    7.306000E-12   14.760000E-12 
         MJC     .3416           .5383       
          TF  411.100000E-12  603.700000E-12 
         XTF    3               1.7          
         VTF    1.7             5            
         ITF     .6              .65         
          TR   46.910000E-09  111.300000E-09 
         XTB    1.5             1.5          
          CN    2.42            2.2          
           D     .87             .52         


**** 05/14/26 18:25:31 *********** Evaluation PSpice (Nov 1999) **************

 * C:\Users\Lim Wei Jen\Documents\UM Programming\latex template\EC assignment - New\pspice simulation\Circuit C.sch


 ****     SMALL SIGNAL BIAS SOLUTION       TEMPERATURE =   27.000 DEG C


******************************************************************************



 NODE   VOLTAGE     NODE   VOLTAGE     NODE   VOLTAGE     NODE   VOLTAGE


($N_0001)    1.6903                   ($N_0002)    3.5324                       

($N_0003)    1.0441                   ($N_0004)    9.2745                       

($N_0005)   10.0000                   ($N_0006)    0.0000                       

($N_0007)    0.0000                   




    VOLTAGE SOURCE CURRENTS
    NAME         CURRENT

    V_V1        -3.036E-03
    V_V2         0.000E+00

    TOTAL POWER DISSIPATION   3.04E-02  WATTS


**** 05/14/26 18:25:31 *********** Evaluation PSpice (Nov 1999) **************

 * C:\Users\Lim Wei Jen\Documents\UM Programming\latex template\EC assignment - New\pspice simulation\Circuit C.sch


 ****     OPERATING POINT INFORMATION      TEMPERATURE =   27.000 DEG C


******************************************************************************






**** BIPOLAR JUNCTION TRANSISTORS


NAME         Q_Q1        Q_Q2        Q_Q3      
MODEL        Q2N2222     Q2N2907A    Q2N2907A  
IB           6.84E-06   -4.52E-06   -4.52E-06 
IC           1.04E-03   -1.04E-03   -9.88E-04 
VBE          6.46E-01   -7.26E-01   -7.26E-01 
VBC         -1.84E+00    5.74E+00    0.00E+00 
VCE          2.49E+00   -6.47E+00   -7.26E-01 
BETADC       1.52E+02    2.29E+02    2.19E+02 
GM           3.99E-02    4.01E-02    3.82E-02 
RPI          4.19E+03    5.87E+03    5.87E+03 
RX           1.00E+01    1.00E+01    1.00E+01 
RO           7.31E+04    1.17E+05    1.17E+05 
CBE          5.28E-11    5.70E-11    5.59E-11 
CBC          4.78E-12    4.62E-12    1.48E-11 
CJS          0.00E+00    0.00E+00    0.00E+00 
BETAAC       1.68E+02    2.35E+02    2.24E+02 
CBX/CBX2     0.00E+00    0.00E+00    0.00E+00 
FT/FT2       1.10E+08    1.03E+08    8.59E+07 


**** 05/14/26 18:25:31 *********** Evaluation PSpice (Nov 1999) **************

 * C:\Users\Lim Wei Jen\Documents\UM Programming\latex template\EC assignment - New\pspice simulation\Circuit C.sch


 ****     INITIAL TRANSIENT SOLUTION       TEMPERATURE =   27.000 DEG C


******************************************************************************



 NODE   VOLTAGE     NODE   VOLTAGE     NODE   VOLTAGE     NODE   VOLTAGE


($N_0001)    1.6903                   ($N_0002)    3.5324                       

($N_0003)    1.0441                   ($N_0004)    9.2745                       

($N_0005)   10.0000                   ($N_0006)    0.0000                       

($N_0007)    0.0000                   




    VOLTAGE SOURCE CURRENTS
    NAME         CURRENT

    V_V1        -3.036E-03
    V_V2         0.000E+00

    TOTAL POWER DISSIPATION   3.04E-02  WATTS



          JOB CONCLUDED

          TOTAL JOB TIME             .02
